Sample in Buffer,Sample in Window,TRIGGER,app_cmd[2:0],app_wdf_data[255:0],app_addr[28:0],app_rd_data[255:0],app_rd_data_reg[255:0],app_en,app_rd_data_end,app_rd_data_valid,app_rdy,app_wdf_end,app_wdf_rdy,app_wdf_wren,ui_clk
Radix - UNSIGNED,UNSIGNED,UNSIGNED,HEX,HEX,HEX,HEX,HEX,HEX,HEX,HEX,HEX,HEX,HEX,HEX,HEX
0,0,0,1,0000000000000000000000000000000000000000000000000000000000000000,000010c0,0069006900690069006900690069006900690069006900690069006900690069,0066006600660066006600660066006600660066006600660066006600660066,0,1,1,0,0,1,0,1
1,1,0,1,0000000000000000000000000000000000000000000000000000000000000000,000010c0,006a006a006a006a006a006a006a006a006a006a006a006a006a006a006a006a,0069006900690069006900690069006900690069006900690069006900690069,0,1,1,0,0,1,0,1
2,2,0,1,0000000000000000000000000000000000000000000000000000000000000000,000010c0,006b006b006b006b006b006b006b006b006b006b006b006b006b006b006b006b,006a006a006a006a006a006a006a006a006a006a006a006a006a006a006a006a,0,1,1,1,0,1,0,1
3,3,0,1,0000000000000000000000000000000000000000000000000000000000000000,000010e0,006c006c006c006c006c006c006c006c006c006c006c006c006c006c006c006c,006b006b006b006b006b006b006b006b006b006b006b006b006b006b006b006b,1,1,1,1,0,1,0,1
4,4,0,1,0000000000000000000000000000000000000000000000000000000000000000,00001100,006d006d006d006d006d006d006d006d006d006d006d006d006d006d006d006d,006c006c006c006c006c006c006c006c006c006c006c006c006c006c006c006c,1,1,1,1,0,1,0,1
5,5,0,1,0000000000000000000000000000000000000000000000000000000000000000,00001120,006e006e006e006e006e006e006e006e006e006e006e006e006e006e006e006e,006d006d006d006d006d006d006d006d006d006d006d006d006d006d006d006d,1,1,1,1,0,1,0,1
6,6,0,1,0000000000000000000000000000000000000000000000000000000000000000,00001140,006f006f006f006f006f006f006f006f006f006f006f006f006f006f006f006f,006e006e006e006e006e006e006e006e006e006e006e006e006e006e006e006e,1,1,1,1,0,1,0,1
7,7,0,1,0000000000000000000000000000000000000000000000000000000000000000,00001160,0070007000700070007000700070007000700070007000700070007000700070,006f006f006f006f006f006f006f006f006f006f006f006f006f006f006f006f,1,1,1,1,0,1,0,1
8,8,0,1,0000000000000000000000000000000000000000000000000000000000000000,00001180,0071007100710071007100710071007100710071007100710071007100710071,0070007000700070007000700070007000700070007000700070007000700070,1,1,1,1,0,1,0,1
9,9,0,1,0000000000000000000000000000000000000000000000000000000000000000,000011a0,0072007200720072007200720072007200720072007200720072007200720072,0071007100710071007100710071007100710071007100710071007100710071,1,1,1,1,0,1,0,1
10,10,0,1,0000000000000000000000000000000000000000000000000000000000000000,000011c0,0053005300530053005300530053005300530053005300530053005300530053,0072007200720072007200720072007200720072007200720072007200720072,1,1,0,1,0,1,0,1
11,11,0,1,0000000000000000000000000000000000000000000000000000000000000000,000011e0,0073007300730073007300730073007300730073007300730073007300730073,0072007200720072007200720072007200720072007200720072007200720072,1,1,1,1,0,1,0,1
12,12,0,1,0000000000000000000000000000000000000000000000000000000000000000,00001200,0074007400740074007400740074007400740074007400740074007400740074,0073007300730073007300730073007300730073007300730073007300730073,1,1,1,1,0,1,0,1
13,13,0,1,0000000000000000000000000000000000000000000000000000000000000000,00001220,0055005500550055005500550055005500550055005500550055005500550055,0074007400740074007400740074007400740074007400740074007400740074,1,1,0,1,0,1,0,1
14,14,0,1,0000000000000000000000000000000000000000000000000000000000000000,00001240,0055005500550055005500550055005500550055005500550055005500550055,0074007400740074007400740074007400740074007400740074007400740074,1,1,0,1,0,1,0,1
15,15,0,1,0000000000000000000000000000000000000000000000000000000000000000,00001260,0055005500550055005500550055005500550055005500550055005500550055,0074007400740074007400740074007400740074007400740074007400740074,1,1,0,1,0,1,0,1
16,16,0,1,0000000000000000000000000000000000000000000000000000000000000000,00001280,0055005500550055005500550055005500550055005500550055005500550055,0074007400740074007400740074007400740074007400740074007400740074,1,1,0,1,0,1,0,1
17,17,0,1,0000000000000000000000000000000000000000000000000000000000000000,000012a0,0055005500550055005500550055005500550055005500550055005500550055,0074007400740074007400740074007400740074007400740074007400740074,1,1,0,1,0,1,0,1
18,18,0,1,0000000000000000000000000000000000000000000000000000000000000000,000012c0,0055005500550055005500550055005500550055005500550055005500550055,0074007400740074007400740074007400740074007400740074007400740074,1,1,0,1,0,1,0,1
19,19,0,1,0000000000000000000000000000000000000000000000000000000000000000,000012e0,0078007800780078007800780078007800780078007800780078007800780078,0074007400740074007400740074007400740074007400740074007400740074,1,1,1,1,0,1,0,1
20,20,0,1,0000000000000000000000000000000000000000000000000000000000000000,00001300,0079007900790079007900790079007900790079007900790079007900790079,0078007800780078007800780078007800780078007800780078007800780078,1,1,1,1,0,1,0,1
21,21,0,1,0000000000000000000000000000000000000000000000000000000000000000,00001320,007a007a007a007a007a007a007a007a007a007a007a007a007a007a007a007a,0079007900790079007900790079007900790079007900790079007900790079,1,1,1,1,0,1,0,1
22,22,0,1,0000000000000000000000000000000000000000000000000000000000000000,00001340,0058005800580058005800580058005800580058005800580058005800580058,007a007a007a007a007a007a007a007a007a007a007a007a007a007a007a007a,1,1,0,1,0,1,0,1
23,23,0,1,0000000000000000000000000000000000000000000000000000000000000000,00001360,007b007b007b007b007b007b007b007b007b007b007b007b007b007b007b007b,007a007a007a007a007a007a007a007a007a007a007a007a007a007a007a007a,1,1,1,1,0,1,0,1
24,24,0,1,0000000000000000000000000000000000000000000000000000000000000000,00001380,007c007c007c007c007c007c007c007c007c007c007c007c007c007c007c007c,007b007b007b007b007b007b007b007b007b007b007b007b007b007b007b007b,1,1,1,1,0,1,0,1
25,25,0,1,0000000000000000000000000000000000000000000000000000000000000000,000013a0,007d007d007d007d007d007d007d007d007d007d007d007d007d007d007d007d,007c007c007c007c007c007c007c007c007c007c007c007c007c007c007c007c,1,1,1,1,0,1,0,1
26,26,0,1,0000000000000000000000000000000000000000000000000000000000000000,000013c0,007e007e007e007e007e007e007e007e007e007e007e007e007e007e007e007e,007d007d007d007d007d007d007d007d007d007d007d007d007d007d007d007d,1,1,1,1,0,1,0,1
27,27,0,1,0000000000000000000000000000000000000000000000000000000000000000,000013e0,007f007f007f007f007f007f007f007f007f007f007f007f007f007f007f007f,007e007e007e007e007e007e007e007e007e007e007e007e007e007e007e007e,1,1,1,1,0,1,0,1
28,28,0,1,0000000000000000000000000000000000000000000000000000000000000000,00001400,0080008000800080008000800080008000800080008000800080008000800080,007f007f007f007f007f007f007f007f007f007f007f007f007f007f007f007f,1,1,1,1,0,1,0,1
29,29,0,1,0000000000000000000000000000000000000000000000000000000000000000,00001420,0081008100810081008100810081008100810081008100810081008100810081,0080008000800080008000800080008000800080008000800080008000800080,1,1,1,1,0,1,0,1
30,30,0,1,0000000000000000000000000000000000000000000000000000000000000000,00001440,0082008200820082008200820082008200820082008200820082008200820082,0081008100810081008100810081008100810081008100810081008100810081,1,1,1,1,0,1,0,1
31,31,0,1,0000000000000000000000000000000000000000000000000000000000000000,00001460,0083008300830083008300830083008300830083008300830083008300830083,0082008200820082008200820082008200820082008200820082008200820082,1,1,1,1,0,1,0,1
32,32,0,1,0000000000000000000000000000000000000000000000000000000000000000,00001480,0084008400840084008400840084008400840084008400840084008400840084,0083008300830083008300830083008300830083008300830083008300830083,1,1,1,1,0,1,0,1
33,33,0,1,0000000000000000000000000000000000000000000000000000000000000000,000014a0,0085008500850085008500850085008500850085008500850085008500850085,0084008400840084008400840084008400840084008400840084008400840084,1,1,1,0,0,1,0,1
34,34,0,1,0000000000000000000000000000000000000000000000000000000000000000,000014a0,0086008600860086008600860086008600860086008600860086008600860086,0085008500850085008500850085008500850085008500850085008500850085,0,1,1,0,0,1,0,1
35,35,0,1,0000000000000000000000000000000000000000000000000000000000000000,000014a0,0087008700870087008700870087008700870087008700870087008700870087,0086008600860086008600860086008600860086008600860086008600860086,0,1,1,0,0,1,0,1
36,36,0,1,0000000000000000000000000000000000000000000000000000000000000000,000014a0,0088008800880088008800880088008800880088008800880088008800880088,0087008700870087008700870087008700870087008700870087008700870087,0,1,1,1,0,1,0,1
37,37,0,1,0000000000000000000000000000000000000000000000000000000000000000,000014c0,0089008900890089008900890089008900890089008900890089008900890089,0088008800880088008800880088008800880088008800880088008800880088,1,1,1,0,0,1,0,1
38,38,0,1,0000000000000000000000000000000000000000000000000000000000000000,000014c0,008a008a008a008a008a008a008a008a008a008a008a008a008a008a008a008a,0089008900890089008900890089008900890089008900890089008900890089,0,1,1,0,0,1,0,1
39,39,0,1,0000000000000000000000000000000000000000000000000000000000000000,000014c0,008b008b008b008b008b008b008b008b008b008b008b008b008b008b008b008b,008a008a008a008a008a008a008a008a008a008a008a008a008a008a008a008a,0,1,1,0,0,1,0,1
40,40,0,1,0000000000000000000000000000000000000000000000000000000000000000,000014c0,008c008c008c008c008c008c008c008c008c008c008c008c008c008c008c008c,008b008b008b008b008b008b008b008b008b008b008b008b008b008b008b008b,0,1,1,1,0,1,0,1
41,41,0,1,0000000000000000000000000000000000000000000000000000000000000000,000014e0,008d008d008d008d008d008d008d008d008d008d008d008d008d008d008d008d,008c008c008c008c008c008c008c008c008c008c008c008c008c008c008c008c,1,1,1,1,0,1,0,1
42,42,0,1,0000000000000000000000000000000000000000000000000000000000000000,00001500,008f008f008f008f008f008f008f008f008f008f008f008f008f008f008f008f,008d008d008d008d008d008d008d008d008d008d008d008d008d008d008d008d,1,1,1,1,0,1,0,1
43,43,0,1,0000000000000000000000000000000000000000000000000000000000000000,00001520,0090009000900090009000900090009000900090009000900090009000900090,008f008f008f008f008f008f008f008f008f008f008f008f008f008f008f008f,1,1,1,1,0,1,0,1
44,44,0,1,0000000000000000000000000000000000000000000000000000000000000000,00001540,0091009100910091009100910091009100910091009100910091009100910091,0090009000900090009000900090009000900090009000900090009000900090,1,1,1,1,0,1,0,1
45,45,0,1,0000000000000000000000000000000000000000000000000000000000000000,00001560,0092009200920092009200920092009200920092009200920092009200920092,0091009100910091009100910091009100910091009100910091009100910091,1,1,1,1,0,1,0,1
46,46,0,1,0000000000000000000000000000000000000000000000000000000000000000,00001580,0093009300930093009300930093009300930093009300930093009300930093,0092009200920092009200920092009200920092009200920092009200920092,1,1,1,1,0,1,0,1
47,47,0,1,0000000000000000000000000000000000000000000000000000000000000000,000015a0,0094009400940094009400940094009400940094009400940094009400940094,0093009300930093009300930093009300930093009300930093009300930093,1,1,1,1,0,1,0,1
48,48,0,1,0000000000000000000000000000000000000000000000000000000000000000,000015c0,0071007100710071007100710071007100710071007100710071007100710071,0094009400940094009400940094009400940094009400940094009400940094,1,1,0,1,0,1,0,1
49,49,0,1,0000000000000000000000000000000000000000000000000000000000000000,000015e0,0095009500950095009500950095009500950095009500950095009500950095,0094009400940094009400940094009400940094009400940094009400940094,1,1,1,1,0,1,0,1
50,50,0,1,0000000000000000000000000000000000000000000000000000000000000000,00001600,0096009600960096009600960096009600960096009600960096009600960096,0095009500950095009500950095009500950095009500950095009500950095,1,1,1,1,0,1,0,1
51,51,0,1,0000000000000000000000000000000000000000000000000000000000000000,00001620,0073007300730073007300730073007300730073007300730073007300730073,0096009600960096009600960096009600960096009600960096009600960096,1,1,0,1,0,1,0,1
52,52,0,1,0000000000000000000000000000000000000000000000000000000000000000,00001640,0073007300730073007300730073007300730073007300730073007300730073,0096009600960096009600960096009600960096009600960096009600960096,1,1,0,1,0,1,0,1
53,53,0,1,0000000000000000000000000000000000000000000000000000000000000000,00001660,0073007300730073007300730073007300730073007300730073007300730073,0096009600960096009600960096009600960096009600960096009600960096,1,1,0,1,0,1,0,1
54,54,0,1,0000000000000000000000000000000000000000000000000000000000000000,00001680,0073007300730073007300730073007300730073007300730073007300730073,0096009600960096009600960096009600960096009600960096009600960096,1,1,0,1,0,1,0,1
55,55,0,1,0000000000000000000000000000000000000000000000000000000000000000,000016a0,0073007300730073007300730073007300730073007300730073007300730073,0096009600960096009600960096009600960096009600960096009600960096,1,1,0,1,0,1,0,1
56,56,0,1,0000000000000000000000000000000000000000000000000000000000000000,000016c0,0073007300730073007300730073007300730073007300730073007300730073,0096009600960096009600960096009600960096009600960096009600960096,1,1,0,1,0,1,0,1
57,57,0,1,0000000000000000000000000000000000000000000000000000000000000000,000016e0,0097009700970097009700970097009700970097009700970097009700970097,0096009600960096009600960096009600960096009600960096009600960096,1,1,1,1,0,1,0,1
58,58,0,1,0000000000000000000000000000000000000000000000000000000000000000,00001700,0098009800980098009800980098009800980098009800980098009800980098,0097009700970097009700970097009700970097009700970097009700970097,1,1,1,1,0,1,0,1
59,59,0,1,0000000000000000000000000000000000000000000000000000000000000000,00001720,0099009900990099009900990099009900990099009900990099009900990099,0098009800980098009800980098009800980098009800980098009800980098,1,1,1,1,0,1,0,1
60,60,0,1,0000000000000000000000000000000000000000000000000000000000000000,00001740,0079007900790079007900790079007900790079007900790079007900790079,0099009900990099009900990099009900990099009900990099009900990099,1,1,0,1,0,1,0,1
61,61,0,1,0000000000000000000000000000000000000000000000000000000000000000,00001760,009a009a009a009a009a009a009a009a009a009a009a009a009a009a009a009a,0099009900990099009900990099009900990099009900990099009900990099,1,1,1,1,0,1,0,1
62,62,0,1,0000000000000000000000000000000000000000000000000000000000000000,00001780,009b009b009b009b009b009b009b009b009b009b009b009b009b009b009b009b,009a009a009a009a009a009a009a009a009a009a009a009a009a009a009a009a,1,1,1,1,0,1,0,1
63,63,0,1,0000000000000000000000000000000000000000000000000000000000000000,000017a0,009c009c009c009c009c009c009c009c009c009c009c009c009c009c009c009c,009b009b009b009b009b009b009b009b009b009b009b009b009b009b009b009b,1,1,1,1,0,1,0,1
64,64,0,1,0000000000000000000000000000000000000000000000000000000000000000,000017c0,009d009d009d009d009d009d009d009d009d009d009d009d009d009d009d009d,009c009c009c009c009c009c009c009c009c009c009c009c009c009c009c009c,1,1,1,1,0,1,0,1
65,65,0,1,0000000000000000000000000000000000000000000000000000000000000000,000017e0,009e009e009e009e009e009e009e009e009e009e009e009e009e009e009e009e,009d009d009d009d009d009d009d009d009d009d009d009d009d009d009d009d,1,1,1,1,0,1,0,1
66,66,0,1,0000000000000000000000000000000000000000000000000000000000000000,00001800,009f009f009f009f009f009f009f009f009f009f009f009f009f009f009f009f,009e009e009e009e009e009e009e009e009e009e009e009e009e009e009e009e,1,1,1,1,0,1,0,1
67,67,0,1,0000000000000000000000000000000000000000000000000000000000000000,00001820,00a000a000a000a000a000a000a000a000a000a000a000a000a000a000a000a0,009f009f009f009f009f009f009f009f009f009f009f009f009f009f009f009f,1,1,1,1,0,1,0,1
68,68,0,1,0000000000000000000000000000000000000000000000000000000000000000,00001840,00a100a100a100a100a100a100a100a100a100a100a100a100a100a100a100a1,00a000a000a000a000a000a000a000a000a000a000a000a000a000a000a000a0,1,1,1,1,0,1,0,1
69,69,0,1,0000000000000000000000000000000000000000000000000000000000000000,00001860,00a200a200a200a200a200a200a200a200a200a200a200a200a200a200a200a2,00a100a100a100a100a100a100a100a100a100a100a100a100a100a100a100a1,1,1,1,1,0,1,0,1
70,70,0,1,0000000000000000000000000000000000000000000000000000000000000000,00001880,00a300a300a300a300a300a300a300a300a300a300a300a300a300a300a300a3,00a200a200a200a200a200a200a200a200a200a200a200a200a200a200a200a2,1,1,1,1,0,1,0,1
71,71,0,1,0000000000000000000000000000000000000000000000000000000000000000,000018a0,00a400a400a400a400a400a400a400a400a400a400a400a400a400a400a400a4,00a300a300a300a300a300a300a300a300a300a300a300a300a300a300a300a3,1,1,1,0,0,1,0,1
72,72,0,1,0000000000000000000000000000000000000000000000000000000000000000,000018a0,00a500a500a500a500a500a500a500a500a500a500a500a500a500a500a500a5,00a400a400a400a400a400a400a400a400a400a400a400a400a400a400a400a4,0,1,1,0,0,1,0,1
73,73,0,1,0000000000000000000000000000000000000000000000000000000000000000,000018a0,00a600a600a600a600a600a600a600a600a600a600a600a600a600a600a600a6,00a500a500a500a500a500a500a500a500a500a500a500a500a500a500a500a5,0,1,1,0,0,1,0,1
74,74,0,1,0000000000000000000000000000000000000000000000000000000000000000,000018a0,00a900a900a900a900a900a900a900a900a900a900a900a900a900a900a900a9,00a600a600a600a600a600a600a600a600a600a600a600a600a600a600a600a6,0,1,1,1,0,1,0,1
75,75,0,1,0000000000000000000000000000000000000000000000000000000000000000,000018c0,00aa00aa00aa00aa00aa00aa00aa00aa00aa00aa00aa00aa00aa00aa00aa00aa,00a900a900a900a900a900a900a900a900a900a900a900a900a900a900a900a9,1,1,1,0,0,1,0,1
76,76,0,1,0000000000000000000000000000000000000000000000000000000000000000,000018c0,00ab00ab00ab00ab00ab00ab00ab00ab00ab00ab00ab00ab00ab00ab00ab00ab,00aa00aa00aa00aa00aa00aa00aa00aa00aa00aa00aa00aa00aa00aa00aa00aa,0,1,1,0,0,1,0,1
77,77,0,1,0000000000000000000000000000000000000000000000000000000000000000,000018c0,00ac00ac00ac00ac00ac00ac00ac00ac00ac00ac00ac00ac00ac00ac00ac00ac,00ab00ab00ab00ab00ab00ab00ab00ab00ab00ab00ab00ab00ab00ab00ab00ab,0,1,1,0,0,1,0,1
78,78,0,1,0000000000000000000000000000000000000000000000000000000000000000,000018c0,00ad00ad00ad00ad00ad00ad00ad00ad00ad00ad00ad00ad00ad00ad00ad00ad,00ac00ac00ac00ac00ac00ac00ac00ac00ac00ac00ac00ac00ac00ac00ac00ac,0,1,1,1,0,1,0,1
79,79,0,1,0000000000000000000000000000000000000000000000000000000000000000,000018e0,00ae00ae00ae00ae00ae00ae00ae00ae00ae00ae00ae00ae00ae00ae00ae00ae,00ad00ad00ad00ad00ad00ad00ad00ad00ad00ad00ad00ad00ad00ad00ad00ad,1,1,1,1,0,1,0,1
80,80,0,1,0000000000000000000000000000000000000000000000000000000000000000,00001900,00af00af00af00af00af00af00af00af00af00af00af00af00af00af00af00af,00ae00ae00ae00ae00ae00ae00ae00ae00ae00ae00ae00ae00ae00ae00ae00ae,1,1,1,1,0,1,0,1
81,81,0,1,0000000000000000000000000000000000000000000000000000000000000000,00001920,00b000b000b000b000b000b000b000b000b000b000b000b000b000b000b000b0,00af00af00af00af00af00af00af00af00af00af00af00af00af00af00af00af,1,1,1,1,0,1,0,1
82,82,0,1,0000000000000000000000000000000000000000000000000000000000000000,00001940,00b100b100b100b100b100b100b100b100b100b100b100b100b100b100b100b1,00b000b000b000b000b000b000b000b000b000b000b000b000b000b000b000b0,1,1,1,1,0,1,0,1
83,83,0,1,0000000000000000000000000000000000000000000000000000000000000000,00001960,00b200b200b200b200b200b200b200b200b200b200b200b200b200b200b200b2,00b100b100b100b100b100b100b100b100b100b100b100b100b100b100b100b1,1,1,1,1,0,1,0,1
84,84,0,1,0000000000000000000000000000000000000000000000000000000000000000,00001980,00b300b300b300b300b300b300b300b300b300b300b300b300b300b300b300b3,00b200b200b200b200b200b200b200b200b200b200b200b200b200b200b200b2,1,1,1,1,0,1,0,1
